T2C40 000:042.726   SEGGER J-Link V7.22b Log File
T2C40 000:043.173   DLL Compiled: Jun 17 2021 17:22:49
T2C40 000:043.182   Logging started @ 2021-12-12 14:03
T2C40 000:043.189 - 43.193ms
T2C40 000:043.530 JLINK_SetWarnOutHandler(...)
T2C40 000:043.552 - 0.025ms
T2C40 000:043.560 JLINK_OpenEx(...)
T2C40 000:045.412   Firmware: J-Link ARM V8 compiled Jan 31 2018 18:34:52
T2C40 000:045.879   Firmware: J-Link ARM V8 compiled Jan 31 2018 18:34:52
T2C40 000:049.326   Hardware: V8.00
T2C40 000:049.352   S/N: 20080643
T2C40 000:049.360   OEM: SEGGER
T2C40 000:049.368   Feature(s): RDI,FlashDL,FlashBP,JFlash,GDBFull
T2C40 000:050.648   TELNET listener socket opened on port 19021
T2C40 000:050.789   WEBSRV Starting webserver
T2C40 000:051.016   WEBSRV Webserver running on local port 19080
T2C40 000:051.031 - 7.474ms returns "O.K."
T2C40 000:051.053 JLINK_GetEmuCaps()
T2C40 000:051.062 - 0.012ms returns 0xB9FF7BBF
T2C40 000:051.074 JLINK_TIF_GetAvailable(...)
T2C40 000:051.467 - 0.401ms
T2C40 000:051.482 JLINK_SetErrorOutHandler(...)
T2C40 000:051.488 - 0.008ms
T2C40 000:052.080 JLINK_ExecCommand("ProjectFile = "G:\hc32l13x_Rev1.9.2_v1.1\example\template\MDK\JLinkSettings.ini"", ...). 
T2C40 000:098.383   Device "CORTEX-M0+" selected.
T2C40 000:098.705 - 46.631ms returns 0x00
T2C40 000:102.500 JLINK_ExecCommand("Device = HC32L130J8TA", ...). 
T2C40 000:106.189   Device "CORTEX-M0+" selected.
T2C40 000:106.517 - 4.004ms returns 0x00
T2C40 000:106.543 JLINK_GetHardwareVersion()
T2C40 000:106.549 - 0.009ms returns 80000
T2C40 000:106.555 JLINK_GetDLLVersion()
T2C40 000:106.559 - 0.006ms returns 72202
T2C40 000:106.564 JLINK_GetOEMString(...)
T2C40 000:106.570 JLINK_GetFirmwareString(...)
T2C40 000:106.582 - 0.014ms
T2C40 000:119.753 JLINK_GetDLLVersion()
T2C40 000:119.771 - 0.019ms returns 72202
T2C40 000:119.777 JLINK_GetCompileDateTime()
T2C40 000:119.781 - 0.006ms
T2C40 000:122.742 JLINK_GetFirmwareString(...)
T2C40 000:122.760 - 0.020ms
T2C40 000:126.206 JLINK_GetHardwareVersion()
T2C40 000:126.234 - 0.029ms returns 80000
T2C40 000:142.462 JLINK_GetSN()
T2C40 000:142.494 - 0.035ms returns 20080643
T2C40 000:152.404 JLINK_GetOEMString(...)
T2C40 000:167.113 JLINK_TIF_Select(JLINKARM_TIF_SWD)
T2C40 000:169.281 - 2.204ms returns 0x00
T2C40 000:169.328 JLINK_HasError()
T2C40 000:170.073 JLINK_SetSpeed(1000)
T2C40 000:170.347 - 0.281ms
T2C40 000:170.362 JLINK_GetId()
T2C40 000:176.346   Found SW-DP with ID 0x0BC11477
T2C40 000:185.094   Old FW that does not support reading DPIDR via DAP jobs
T2C40 000:197.221   DPv0 detected
T2C40 000:204.160   Scanning AP map to find all available APs
T2C40 000:218.099   AP[1]: Stopped AP scan as end of AP map has been reached
T2C40 000:225.183   AP[0]: AHB-AP (IDR: 0x04770031)
T2C40 000:231.625   Iterating through AP map to find AHB-AP to use
T2C40 000:246.551   AP[0]: Core found
T2C40 000:249.300   AP[0]: AHB-AP ROM base: 0xE00FF000
T2C40 000:256.599   CPUID register: 0x410CC601. Implementer code: 0x41 (ARM)
T2C40 000:259.177   Found Cortex-M0 r0p1, Little endian.
T2C40 000:361.610   -- Max. mem block: 0x000020B0
T2C40 000:362.513   CPU_ReadMem(4 bytes @ 0xE000EDF0)
T2C40 000:363.290   CPU_WriteMem(4 bytes @ 0xE000EDF0)
T2C40 000:363.972   CPU_ReadMem(4 bytes @ 0xE0002000)
T2C40 000:374.069   FPUnit: 4 code (BP) slots and 0 literal slots
T2C40 000:374.115   CPU_ReadMem(4 bytes @ 0xE000EDFC)
T2C40 000:374.853   CPU_WriteMem(4 bytes @ 0xE000EDFC)
T2C40 000:375.603   CPU_ReadMem(4 bytes @ 0xE0001000)
T2C40 000:376.450   CPU_WriteMem(4 bytes @ 0xE0001000)
T2C40 000:380.671   CoreSight components:
T2C40 000:383.096   ROMTbl[0] @ E00FF000
T2C40 000:383.108   CPU_ReadMem(64 bytes @ 0xE00FF000)
T2C40 000:384.883   CPU_ReadMem(32 bytes @ 0xE000EFE0)
T2C40 000:388.717   ROMTbl[0][0]: E000E000, CID: B105E00D, PID: 000BB008 SCS
T2C40 000:388.731   CPU_ReadMem(32 bytes @ 0xE0001FE0)
T2C40 000:392.317   ROMTbl[0][1]: E0001000, CID: B105E00D, PID: 000BB00A DWT
T2C40 000:392.330   CPU_ReadMem(32 bytes @ 0xE0002FE0)
T2C40 000:398.824   ROMTbl[0][2]: E0002000, CID: B105E00D, PID: 000BB00B FPB
T2C40 000:399.772 - 229.413ms returns 0x0BC11477
T2C40 000:399.784 JLINK_GetDLLVersion()
T2C40 000:399.788 - 0.006ms returns 72202
T2C40 000:399.794 JLINK_CORE_GetFound()
T2C40 000:399.798 - 0.006ms returns 0x60000FF
T2C40 000:399.804 JLINK_GetDebugInfo(0x100 = JLINKARM_ROM_TABLE_ADDR_INDEX)
T2C40 000:399.809   Value=0xE00FF000
T2C40 000:399.814 - 0.012ms returns 0
T2C40 000:402.271 JLINK_GetDebugInfo(0x100 = JLINKARM_ROM_TABLE_ADDR_INDEX)
T2C40 000:402.280   Value=0xE00FF000
T2C40 000:402.286 - 0.016ms returns 0
T2C40 000:402.291 JLINK_GetDebugInfo(0x101 = JLINKARM_DEBUG_INFO_ETM_ADDR_INDEX)
T2C40 000:402.295   Value=0x00000000
T2C40 000:402.301 - 0.011ms returns 0
T2C40 000:402.312 JLINK_ReadMemEx(0xE0041FF0, 0x10 Bytes, Flags = 0x02000004)
T2C40 000:402.335   CPU_ReadMem(16 bytes @ 0xE0041FF0)
T2C40 000:403.281   Data:  00 00 00 00 00 00 00 00 00 00 00 00 00 00 00 00
T2C40 000:403.288 - 0.978ms returns 16 (0x10)
T2C40 000:403.294 JLINK_GetDebugInfo(0x102 = JLINKARM_DEBUG_INFO_MTB_ADDR_INDEX)
T2C40 000:403.298   Value=0x00000000
T2C40 000:403.304 - 0.011ms returns 0
T2C40 000:403.308 JLINK_GetDebugInfo(0x103 = JLINKARM_DEBUG_INFO_TPIU_ADDR_INDEX)
T2C40 000:403.312   Value=0x00000000
T2C40 000:403.318 - 0.011ms returns 0
T2C40 000:403.322 JLINK_ReadMemEx(0xE0040FF0, 0x10 Bytes, Flags = 0x02000004)
T2C40 000:403.329   CPU_ReadMem(16 bytes @ 0xE0040FF0)
T2C40 000:404.274   Data:  00 00 00 00 00 00 00 00 00 00 00 00 00 00 00 00
T2C40 000:404.306 - 0.993ms returns 16 (0x10)
T2C40 000:404.333 JLINK_GetDebugInfo(0x104 = JLINKARM_DEBUG_INFO_ITM_ADDR_INDEX)
T2C40 000:404.354   Value=0xE0000000
T2C40 000:404.381 - 0.057ms returns 0
T2C40 000:404.422 JLINK_GetDebugInfo(0x105 = JLINKARM_DEBUG_INFO_DWT_ADDR_INDEX)
T2C40 000:404.426   Value=0xE0001000
T2C40 000:404.431 - 0.028ms returns 0
T2C40 000:404.436 JLINK_GetDebugInfo(0x106 = JLINKARM_DEBUG_INFO_FPB_ADDR_INDEX)
T2C40 000:404.440   Value=0xE0002000
T2C40 000:404.445 - 0.011ms returns 0
T2C40 000:404.450 JLINK_GetDebugInfo(0x107 = JLINKARM_DEBUG_INFO_NVIC_ADDR_INDEX)
T2C40 000:404.454   Value=0xE000E000
T2C40 000:404.459 - 0.011ms returns 0
T2C40 000:404.464 JLINK_GetDebugInfo(0x10C = JLINKARM_DEBUG_INFO_DBG_ADDR_INDEX)
T2C40 000:404.468   Value=0xE000EDF0
T2C40 000:404.474 - 0.011ms returns 0
T2C40 000:404.478 JLINK_GetDebugInfo(0x01 = Unknown)
T2C40 000:404.482   Value=0x00000000
T2C40 000:404.488 - 0.011ms returns 0
T2C40 000:404.492 JLINK_ReadMemU32(0xE000ED00, 0x1 Items)
T2C40 000:404.499   CPU_ReadMem(4 bytes @ 0xE000ED00)
T2C40 000:405.283   Data:  01 C6 0C 41
T2C40 000:405.326   Debug reg: CPUID
T2C40 000:405.353 - 0.870ms returns 1 (0x1)
T2C40 000:405.380 JLINK_GetDebugInfo(0x10F = JLINKARM_DEBUG_INFO_HAS_CORTEX_M_SECURITY_EXT_INDEX)
T2C40 000:405.402   Value=0x00000000
T2C40 000:405.438 - 0.059ms returns 0
T2C40 000:405.443 JLINK_HasError()
T2C40 000:405.448 JLINK_SetResetType(JLINKARM_CM3_RESET_TYPE_NORMAL)
T2C40 000:405.452 - 0.006ms returns JLINKARM_CM3_RESET_TYPE_NORMAL
T2C40 000:405.457 JLINK_Reset()
T2C40 000:405.471   CPU is running
T2C40 000:405.478   CPU_WriteMem(4 bytes @ 0xE000EDF0)
T2C40 000:406.198   CPU is running
T2C40 000:406.233   CPU_WriteMem(4 bytes @ 0xE000EDFC)
T2C40 000:409.507   Reset: Halt core after reset via DEMCR.VC_CORERESET.
T2C40 000:413.090   Reset: Reset device via AIRCR.SYSRESETREQ.
T2C40 000:413.106   CPU is running
T2C40 000:413.115   CPU_WriteMem(4 bytes @ 0xE000ED0C)
T2C40 000:465.425   CPU_ReadMem(4 bytes @ 0xE000EDF0)
T2C40 000:466.256   CPU_ReadMem(4 bytes @ 0xE000EDF0)
T2C40 000:467.115   CPU is running
T2C40 000:467.143   CPU_WriteMem(4 bytes @ 0xE000EDF0)
T2C40 000:468.029   CPU is running
T2C40 000:468.056   CPU_WriteMem(4 bytes @ 0xE000EDFC)
T2C40 000:474.498   CPU_ReadMem(4 bytes @ 0xE000EDF0)
T2C40 000:481.108   CPU_WriteMem(4 bytes @ 0xE0002000)
T2C40 000:481.858   CPU_ReadMem(4 bytes @ 0xE000EDFC)
T2C40 000:482.587   CPU_ReadMem(4 bytes @ 0xE0001000)
T2C40 000:483.339   CPU_WriteMem(4 bytes @ 0xE0001000)
T2C40 000:484.133 - 78.689ms
T2C40 000:484.169 JLINK_Halt()
T2C40 000:484.185 - 0.022ms returns 0x00
T2C40 000:484.207 JLINK_ReadMemU32(0xE000EDF0, 0x1 Items)
T2C40 000:484.236   CPU_ReadMem(4 bytes @ 0xE000EDF0)
T2C40 000:485.116   Data:  03 00 03 01
T2C40 000:485.143   Debug reg: DHCSR
T2C40 000:485.163 - 0.963ms returns 1 (0x1)
T2C40 000:485.187 JLINK_WriteU32_64(0xE000EDF0, 0xA05F0003)
T2C40 000:485.210   Debug reg: DHCSR
T2C40 000:485.857   CPU_WriteMem(4 bytes @ 0xE000EDF0)
T2C40 000:486.632 - 1.457ms returns 0 (0x00000000)
T2C40 000:486.662 JLINK_WriteU32_64(0xE000EDFC, 0x01000000)
T2C40 000:486.679   Debug reg: DEMCR
T2C40 000:486.709   CPU_WriteMem(4 bytes @ 0xE000EDFC)
T2C40 000:487.504 - 0.853ms returns 0 (0x00000000)
T2C40 000:504.198 JLINK_GetHWStatus(...)
T2C40 000:504.549 - 0.354ms returns 0
T2C40 000:514.428 JLINK_GetNumBPUnits(Type = 0xFFFFFF00)
T2C40 000:514.444 - 0.018ms returns 0x04
T2C40 000:514.450 JLINK_GetNumBPUnits(Type = 0xF0)
T2C40 000:514.454 - 0.006ms returns 0x2000
T2C40 000:514.459 JLINK_GetNumWPUnits()
T2C40 000:514.462 - 0.005ms returns 2
T2C40 000:521.873 JLINK_GetSpeed()
T2C40 000:521.887 - 0.016ms returns 1000
T2C40 000:526.561 JLINK_ReadMemU32(0xE000E004, 0x1 Items)
T2C40 000:526.581   CPU_ReadMem(4 bytes @ 0xE000E004)
T2C40 000:527.226   Data:  00 00 00 00
T2C40 000:527.237 - 0.678ms returns 1 (0x1)
T2C40 000:527.247 JLINK_Halt()
T2C40 000:527.251 - 0.006ms returns 0x00
T2C40 000:527.256 JLINK_IsHalted()
T2C40 000:527.261 - 0.006ms returns TRUE
T2C40 000:532.888 JLINK_WriteMem(0x20000000, 0x218 Bytes, ...)
T2C40 000:532.899   Data:  00 BE 0A E0 0D 78 2D 06 68 40 08 24 40 00 00 D3 ...
T2C40 000:533.122   CPU_WriteMem(536 bytes @ 0x20000000)
T2C40 000:542.781 - 9.926ms returns 0x218
T2C40 000:542.920 JLINK_HasError()
T2C40 000:542.928 JLINK_WriteReg(R0, 0x00000000)
T2C40 000:542.935 - 0.009ms returns 0
T2C40 000:542.940 JLINK_WriteReg(R1, 0x00B71B00)
T2C40 000:542.945 - 0.006ms returns 0
T2C40 000:542.950 JLINK_WriteReg(R2, 0x00000001)
T2C40 000:542.954 - 0.006ms returns 0
T2C40 000:542.959 JLINK_WriteReg(R3, 0x00000000)
T2C40 000:542.963 - 0.006ms returns 0
T2C40 000:542.968 JLINK_WriteReg(R4, 0x00000000)
T2C40 000:542.972 - 0.006ms returns 0
T2C40 000:542.977 JLINK_WriteReg(R5, 0x00000000)
T2C40 000:542.981 - 0.006ms returns 0
T2C40 000:542.986 JLINK_WriteReg(R6, 0x00000000)
T2C40 000:542.990 - 0.006ms returns 0
T2C40 000:542.995 JLINK_WriteReg(R7, 0x00000000)
T2C40 000:542.999 - 0.006ms returns 0
T2C40 000:543.004 JLINK_WriteReg(R8, 0x00000000)
T2C40 000:543.018 - 0.016ms returns 0
T2C40 000:543.023 JLINK_WriteReg(R9, 0x20000214)
T2C40 000:543.027 - 0.006ms returns 0
T2C40 000:543.032 JLINK_WriteReg(R10, 0x00000000)
T2C40 000:543.036 - 0.006ms returns 0
T2C40 000:543.041 JLINK_WriteReg(R11, 0x00000000)
T2C40 000:543.045 - 0.006ms returns 0
T2C40 000:543.050 JLINK_WriteReg(R12, 0x00000000)
T2C40 000:543.054 - 0.006ms returns 0
T2C40 000:543.059 JLINK_WriteReg(R13 (SP), 0x20002000)
T2C40 000:543.064 - 0.007ms returns 0
T2C40 000:543.069 JLINK_WriteReg(R14, 0x20000001)
T2C40 000:543.073 - 0.006ms returns 0
T2C40 000:543.078 JLINK_WriteReg(R15 (PC), 0x20000040)
T2C40 000:543.086 - 0.010ms returns 0
T2C40 000:543.091 JLINK_WriteReg(XPSR, 0x01000000)
T2C40 000:543.095 - 0.006ms returns 0
T2C40 000:543.100 JLINK_WriteReg(MSP, 0x20002000)
T2C40 000:543.104 - 0.006ms returns 0
T2C40 000:543.109 JLINK_WriteReg(PSP, 0x20002000)
T2C40 000:543.113 - 0.006ms returns 0
T2C40 000:543.118 JLINK_WriteReg(CFBP, 0x00000000)
T2C40 000:543.122 - 0.006ms returns 0
T2C40 000:543.127 JLINK_SetBPEx(Addr = 0x20000000, Type = 0xFFFFFFF2)
T2C40 000:543.135   CPU_ReadMem(4 bytes @ 0x20000000)
T2C40 000:543.922   CPU_WriteMem(4 bytes @ 0x20000000)
T2C40 000:544.621   CPU_ReadMem(4 bytes @ 0x20000000)
T2C40 000:545.401   CPU_WriteMem(4 bytes @ 0x20000000)
T2C40 000:546.224   CPU_ReadMem(2 bytes @ 0x20000000)
T2C40 000:547.047 - 3.936ms returns 0x00000001
T2C40 000:547.083 JLINK_Go()
T2C40 000:547.116   CPU_WriteMem(2 bytes @ 0x20000000)
T2C40 000:547.893   CPU_ReadMem(4 bytes @ 0xE0001000)
T2C40 000:548.732   CPU_WriteMem(4 bytes @ 0xE0001000)
T2C40 000:548.768   CPU_WriteMem(4 bytes @ 0xE0002008)
T2C40 000:548.798   CPU_WriteMem(4 bytes @ 0xE000200C)
T2C40 000:548.827   CPU_WriteMem(4 bytes @ 0xE0002010)
T2C40 000:548.856   CPU_WriteMem(4 bytes @ 0xE0002014)
T2C40 000:551.698   CPU_WriteMem(4 bytes @ 0xE0001004)
T2C40 000:557.020 - 9.953ms
T2C40 000:557.055 JLINK_IsHalted()
T2C40 000:562.450   CPU_ReadMem(2 bytes @ 0x20000000)
T2C40 000:563.126 - 6.073ms returns TRUE
T2C40 000:563.133 JLINK_ReadReg(R15 (PC))
T2C40 000:563.139 - 0.008ms returns 0x20000000
T2C40 000:563.144 JLINK_ClrBPEx(BPHandle = 0x00000001)
T2C40 000:563.149 - 0.006ms returns 0x00
T2C40 000:563.154 JLINK_ReadReg(R0)
T2C40 000:563.158 - 0.006ms returns 0x00000000
T2C40 000:563.593 JLINK_HasError()
T2C40 000:563.602 JLINK_WriteReg(R0, 0x00000000)
T2C40 000:563.609 - 0.008ms returns 0
T2C40 000:563.614 JLINK_WriteReg(R1, 0x00000200)
T2C40 000:563.618 - 0.006ms returns 0
T2C40 000:563.623 JLINK_WriteReg(R2, 0x000000FF)
T2C40 000:563.627 - 0.006ms returns 0
T2C40 000:563.632 JLINK_WriteReg(R3, 0x00000000)
T2C40 000:563.636 - 0.006ms returns 0
T2C40 000:563.641 JLINK_WriteReg(R4, 0x00000000)
T2C40 000:563.645 - 0.006ms returns 0
T2C40 000:563.650 JLINK_WriteReg(R5, 0x00000000)
T2C40 000:563.654 - 0.006ms returns 0
T2C40 000:563.659 JLINK_WriteReg(R6, 0x00000000)
T2C40 000:563.663 - 0.006ms returns 0
T2C40 000:563.668 JLINK_WriteReg(R7, 0x00000000)
T2C40 000:563.672 - 0.006ms returns 0
T2C40 000:563.677 JLINK_WriteReg(R8, 0x00000000)
T2C40 000:563.681 - 0.006ms returns 0
T2C40 000:563.686 JLINK_WriteReg(R9, 0x20000214)
T2C40 000:563.690 - 0.006ms returns 0
T2C40 000:563.694 JLINK_WriteReg(R10, 0x00000000)
T2C40 000:563.699 - 0.006ms returns 0
T2C40 000:563.704 JLINK_WriteReg(R11, 0x00000000)
T2C40 000:563.708 - 0.006ms returns 0
T2C40 000:563.712 JLINK_WriteReg(R12, 0x00000000)
T2C40 000:563.717 - 0.006ms returns 0
T2C40 000:563.721 JLINK_WriteReg(R13 (SP), 0x20002000)
T2C40 000:563.726 - 0.006ms returns 0
T2C40 000:563.731 JLINK_WriteReg(R14, 0x20000001)
T2C40 000:563.735 - 0.006ms returns 0
T2C40 000:563.740 JLINK_WriteReg(R15 (PC), 0x20000020)
T2C40 000:563.744 - 0.006ms returns 0
T2C40 000:563.749 JLINK_WriteReg(XPSR, 0x01000000)
T2C40 000:563.753 - 0.006ms returns 0
T2C40 000:563.758 JLINK_WriteReg(MSP, 0x20002000)
T2C40 000:563.762 - 0.006ms returns 0
T2C40 000:563.767 JLINK_WriteReg(PSP, 0x20002000)
T2C40 000:563.771 - 0.006ms returns 0
T2C40 000:563.776 JLINK_WriteReg(CFBP, 0x00000000)
T2C40 000:563.780 - 0.006ms returns 0
T2C40 000:563.785 JLINK_SetBPEx(Addr = 0x20000000, Type = 0xFFFFFFF2)
T2C40 000:563.790 - 0.007ms returns 0x00000002
T2C40 000:563.795 JLINK_Go()
T2C40 000:563.804   CPU_ReadMem(4 bytes @ 0xE0001000)
T2C40 000:564.647   CPU_WriteMem(4 bytes @ 0xE0001000)
T2C40 000:569.942 - 6.165ms
T2C40 000:569.986 JLINK_IsHalted()
T2C40 000:575.272   CPU_ReadMem(2 bytes @ 0x20000000)
T2C40 000:576.146 - 6.174ms returns TRUE
T2C40 000:576.183 JLINK_ReadReg(R15 (PC))
T2C40 000:576.220 - 0.047ms returns 0x20000000
T2C40 000:576.249 JLINK_ClrBPEx(BPHandle = 0x00000002)
T2C40 000:576.271 - 0.046ms returns 0x00
T2C40 000:576.299 JLINK_ReadReg(R0)
T2C40 000:576.304 - 0.006ms returns 0x00000001
T2C40 000:576.310 JLINK_HasError()
T2C40 000:576.334 JLINK_WriteReg(R0, 0x00000000)
T2C40 000:576.339 - 0.007ms returns 0
T2C40 000:576.344 JLINK_WriteReg(R1, 0x00000200)
T2C40 000:576.348 - 0.006ms returns 0
T2C40 000:576.353 JLINK_WriteReg(R2, 0x000000FF)
T2C40 000:576.357 - 0.006ms returns 0
T2C40 000:576.362 JLINK_WriteReg(R3, 0x00000000)
T2C40 000:576.366 - 0.006ms returns 0
T2C40 000:576.371 JLINK_WriteReg(R4, 0x00000000)
T2C40 000:576.375 - 0.006ms returns 0
T2C40 000:576.380 JLINK_WriteReg(R5, 0x00000000)
T2C40 000:576.384 - 0.006ms returns 0
T2C40 000:576.389 JLINK_WriteReg(R6, 0x00000000)
T2C40 000:576.393 - 0.006ms returns 0
T2C40 000:576.398 JLINK_WriteReg(R7, 0x00000000)
T2C40 000:576.443 - 0.049ms returns 0
T2C40 000:576.450 JLINK_WriteReg(R8, 0x00000000)
T2C40 000:576.454 - 0.006ms returns 0
T2C40 000:576.459 JLINK_WriteReg(R9, 0x20000214)
T2C40 000:576.463 - 0.006ms returns 0
T2C40 000:576.468 JLINK_WriteReg(R10, 0x00000000)
T2C40 000:576.472 - 0.006ms returns 0
T2C40 000:576.477 JLINK_WriteReg(R11, 0x00000000)
T2C40 000:576.481 - 0.006ms returns 0
T2C40 000:576.486 JLINK_WriteReg(R12, 0x00000000)
T2C40 000:576.490 - 0.006ms returns 0
T2C40 000:576.495 JLINK_WriteReg(R13 (SP), 0x20002000)
T2C40 000:576.500 - 0.006ms returns 0
T2C40 000:576.504 JLINK_WriteReg(R14, 0x20000001)
T2C40 000:576.508 - 0.006ms returns 0
T2C40 000:576.513 JLINK_WriteReg(R15 (PC), 0x2000014A)
T2C40 000:576.518 - 0.006ms returns 0
T2C40 000:576.522 JLINK_WriteReg(XPSR, 0x01000000)
T2C40 000:576.527 - 0.006ms returns 0
T2C40 000:576.531 JLINK_WriteReg(MSP, 0x20002000)
T2C40 000:576.535 - 0.006ms returns 0
T2C40 000:576.540 JLINK_WriteReg(PSP, 0x20002000)
T2C40 000:576.544 - 0.006ms returns 0
T2C40 000:576.549 JLINK_WriteReg(CFBP, 0x00000000)
T2C40 000:576.553 - 0.006ms returns 0
T2C40 000:576.558 JLINK_SetBPEx(Addr = 0x20000000, Type = 0xFFFFFFF2)
T2C40 000:576.563 - 0.007ms returns 0x00000003
T2C40 000:576.568 JLINK_Go()
T2C40 000:576.576   CPU_ReadMem(4 bytes @ 0xE0001000)
T2C40 000:577.325   CPU_WriteMem(4 bytes @ 0xE0001000)
T2C40 000:582.640 - 6.093ms
T2C40 000:582.680 JLINK_IsHalted()
T2C40 000:583.425 - 0.747ms returns FALSE
T2C40 000:583.431 JLINK_HasError()
T2C40 000:597.162 JLINK_IsHalted()
T2C40 000:602.548   CPU_ReadMem(2 bytes @ 0x20000000)
T2C40 000:603.316 - 6.158ms returns TRUE
T2C40 000:603.326 JLINK_ReadReg(R15 (PC))
T2C40 000:603.332 - 0.008ms returns 0x20000000
T2C40 000:603.338 JLINK_ClrBPEx(BPHandle = 0x00000003)
T2C40 000:603.342 - 0.006ms returns 0x00
T2C40 000:603.348 JLINK_ReadReg(R0)
T2C40 000:603.353 - 0.006ms returns 0x00000000
T2C40 000:603.676 JLINK_HasError()
T2C40 000:603.685 JLINK_WriteReg(R0, 0x00000200)
T2C40 000:603.691 - 0.008ms returns 0
T2C40 000:603.696 JLINK_WriteReg(R1, 0x00000200)
T2C40 000:603.701 - 0.006ms returns 0
T2C40 000:603.706 JLINK_WriteReg(R2, 0x000000FF)
T2C40 000:603.710 - 0.006ms returns 0
T2C40 000:603.715 JLINK_WriteReg(R3, 0x00000000)
T2C40 000:603.719 - 0.006ms returns 0
T2C40 000:603.724 JLINK_WriteReg(R4, 0x00000000)
T2C40 000:603.728 - 0.006ms returns 0
T2C40 000:603.733 JLINK_WriteReg(R5, 0x00000000)
T2C40 000:603.737 - 0.006ms returns 0
T2C40 000:603.742 JLINK_WriteReg(R6, 0x00000000)
T2C40 000:603.746 - 0.006ms returns 0
T2C40 000:603.751 JLINK_WriteReg(R7, 0x00000000)
T2C40 000:603.755 - 0.006ms returns 0
T2C40 000:603.760 JLINK_WriteReg(R8, 0x00000000)
T2C40 000:603.764 - 0.006ms returns 0
T2C40 000:603.769 JLINK_WriteReg(R9, 0x20000214)
T2C40 000:603.773 - 0.006ms returns 0
T2C40 000:603.778 JLINK_WriteReg(R10, 0x00000000)
T2C40 000:603.782 - 0.006ms returns 0
T2C40 000:603.787 JLINK_WriteReg(R11, 0x00000000)
T2C40 000:603.791 - 0.006ms returns 0
T2C40 000:603.796 JLINK_WriteReg(R12, 0x00000000)
T2C40 000:603.800 - 0.006ms returns 0
T2C40 000:603.805 JLINK_WriteReg(R13 (SP), 0x20002000)
T2C40 000:603.809 - 0.006ms returns 0
T2C40 000:603.814 JLINK_WriteReg(R14, 0x20000001)
T2C40 000:603.818 - 0.006ms returns 0
T2C40 000:603.823 JLINK_WriteReg(R15 (PC), 0x20000020)
T2C40 000:603.827 - 0.006ms returns 0
T2C40 000:603.832 JLINK_WriteReg(XPSR, 0x01000000)
T2C40 000:603.836 - 0.006ms returns 0
T2C40 000:603.841 JLINK_WriteReg(MSP, 0x20002000)
T2C40 000:603.845 - 0.006ms returns 0
T2C40 000:603.850 JLINK_WriteReg(PSP, 0x20002000)
T2C40 000:603.854 - 0.006ms returns 0
T2C40 000:603.858 JLINK_WriteReg(CFBP, 0x00000000)
T2C40 000:603.863 - 0.006ms returns 0
T2C40 000:603.867 JLINK_SetBPEx(Addr = 0x20000000, Type = 0xFFFFFFF2)
T2C40 000:603.873 - 0.007ms returns 0x00000004
T2C40 000:603.878 JLINK_Go()
T2C40 000:603.887   CPU_ReadMem(4 bytes @ 0xE0001000)
T2C40 000:604.682   CPU_WriteMem(4 bytes @ 0xE0001000)
T2C40 000:610.076 - 6.219ms
T2C40 000:610.119 JLINK_IsHalted()
T2C40 000:615.450   CPU_ReadMem(2 bytes @ 0x20000000)
T2C40 000:616.167 - 6.064ms returns TRUE
T2C40 000:616.203 JLINK_ReadReg(R15 (PC))
T2C40 000:616.233 - 0.054ms returns 0x20000000
T2C40 000:616.260 JLINK_ClrBPEx(BPHandle = 0x00000004)
T2C40 000:616.265 - 0.006ms returns 0x00
T2C40 000:616.270 JLINK_ReadReg(R0)
T2C40 000:616.274 - 0.006ms returns 0x00000001
T2C40 000:616.279 JLINK_HasError()
T2C40 000:616.284 JLINK_WriteReg(R0, 0x00000200)
T2C40 000:616.289 - 0.006ms returns 0
T2C40 000:616.294 JLINK_WriteReg(R1, 0x00000200)
T2C40 000:616.298 - 0.006ms returns 0
T2C40 000:616.303 JLINK_WriteReg(R2, 0x000000FF)
T2C40 000:616.307 - 0.006ms returns 0
T2C40 000:616.312 JLINK_WriteReg(R3, 0x00000000)
T2C40 000:616.316 - 0.006ms returns 0
T2C40 000:616.321 JLINK_WriteReg(R4, 0x00000000)
T2C40 000:616.325 - 0.006ms returns 0
T2C40 000:616.329 JLINK_WriteReg(R5, 0x00000000)
T2C40 000:616.334 - 0.006ms returns 0
T2C40 000:616.338 JLINK_WriteReg(R6, 0x00000000)
T2C40 000:616.343 - 0.006ms returns 0
T2C40 000:616.347 JLINK_WriteReg(R7, 0x00000000)
T2C40 000:616.352 - 0.006ms returns 0
T2C40 000:616.356 JLINK_WriteReg(R8, 0x00000000)
T2C40 000:616.360 - 0.006ms returns 0
T2C40 000:616.365 JLINK_WriteReg(R9, 0x20000214)
T2C40 000:616.369 - 0.006ms returns 0
T2C40 000:616.374 JLINK_WriteReg(R10, 0x00000000)
T2C40 000:616.378 - 0.006ms returns 0
T2C40 000:616.383 JLINK_WriteReg(R11, 0x00000000)
T2C40 000:616.387 - 0.006ms returns 0
T2C40 000:616.392 JLINK_WriteReg(R12, 0x00000000)
T2C40 000:616.396 - 0.006ms returns 0
T2C40 000:616.401 JLINK_WriteReg(R13 (SP), 0x20002000)
T2C40 000:616.405 - 0.006ms returns 0
T2C40 000:616.410 JLINK_WriteReg(R14, 0x20000001)
T2C40 000:616.414 - 0.006ms returns 0
T2C40 000:616.419 JLINK_WriteReg(R15 (PC), 0x2000014A)
T2C40 000:616.423 - 0.006ms returns 0
T2C40 000:616.428 JLINK_WriteReg(XPSR, 0x01000000)
T2C40 000:616.432 - 0.006ms returns 0
T2C40 000:616.437 JLINK_WriteReg(MSP, 0x20002000)
T2C40 000:616.441 - 0.006ms returns 0
T2C40 000:616.446 JLINK_WriteReg(PSP, 0x20002000)
T2C40 000:616.450 - 0.006ms returns 0
T2C40 000:616.455 JLINK_WriteReg(CFBP, 0x00000000)
T2C40 000:616.459 - 0.006ms returns 0
T2C40 000:616.464 JLINK_SetBPEx(Addr = 0x20000000, Type = 0xFFFFFFF2)
T2C40 000:616.469 - 0.007ms returns 0x00000005
T2C40 000:616.474 JLINK_Go()
T2C40 000:616.482   CPU_ReadMem(4 bytes @ 0xE0001000)
T2C40 000:617.220   CPU_WriteMem(4 bytes @ 0xE0001000)
T2C40 000:622.465 - 6.007ms
T2C40 000:622.499 JLINK_IsHalted()
T2C40 000:623.209 - 0.713ms returns FALSE
T2C40 000:623.216 JLINK_HasError()
T2C40 000:626.076 JLINK_IsHalted()
T2C40 000:626.843 - 0.781ms returns FALSE
T2C40 000:626.876 JLINK_HasError()
T2C40 000:628.080 JLINK_IsHalted()
T2C40 000:633.404   CPU_ReadMem(2 bytes @ 0x20000000)
T2C40 000:634.176 - 6.099ms returns TRUE
T2C40 000:634.185 JLINK_ReadReg(R15 (PC))
T2C40 000:634.190 - 0.007ms returns 0x20000000
T2C40 000:634.196 JLINK_ClrBPEx(BPHandle = 0x00000005)
T2C40 000:634.201 - 0.006ms returns 0x00
T2C40 000:634.206 JLINK_ReadReg(R0)
T2C40 000:634.210 - 0.006ms returns 0x00000000
T2C40 000:634.525 JLINK_HasError()
T2C40 000:634.534 JLINK_WriteReg(R0, 0x00000400)
T2C40 000:634.540 - 0.008ms returns 0
T2C40 000:634.545 JLINK_WriteReg(R1, 0x00000200)
T2C40 000:634.550 - 0.006ms returns 0
T2C40 000:634.554 JLINK_WriteReg(R2, 0x000000FF)
T2C40 000:634.559 - 0.006ms returns 0
T2C40 000:634.564 JLINK_WriteReg(R3, 0x00000000)
T2C40 000:634.568 - 0.006ms returns 0
T2C40 000:634.573 JLINK_WriteReg(R4, 0x00000000)
T2C40 000:634.577 - 0.006ms returns 0
T2C40 000:634.581 JLINK_WriteReg(R5, 0x00000000)
T2C40 000:634.586 - 0.006ms returns 0
T2C40 000:634.591 JLINK_WriteReg(R6, 0x00000000)
T2C40 000:634.595 - 0.006ms returns 0
T2C40 000:634.600 JLINK_WriteReg(R7, 0x00000000)
T2C40 000:634.604 - 0.006ms returns 0
T2C40 000:634.609 JLINK_WriteReg(R8, 0x00000000)
T2C40 000:634.613 - 0.006ms returns 0
T2C40 000:634.617 JLINK_WriteReg(R9, 0x20000214)
T2C40 000:634.622 - 0.006ms returns 0
T2C40 000:634.626 JLINK_WriteReg(R10, 0x00000000)
T2C40 000:634.633 - 0.010ms returns 0
T2C40 000:634.639 JLINK_WriteReg(R11, 0x00000000)
T2C40 000:634.644 - 0.006ms returns 0
T2C40 000:634.649 JLINK_WriteReg(R12, 0x00000000)
T2C40 000:634.653 - 0.006ms returns 0
T2C40 000:634.658 JLINK_WriteReg(R13 (SP), 0x20002000)
T2C40 000:634.662 - 0.006ms returns 0
T2C40 000:634.667 JLINK_WriteReg(R14, 0x20000001)
T2C40 000:634.671 - 0.006ms returns 0
T2C40 000:634.676 JLINK_WriteReg(R15 (PC), 0x20000020)
T2C40 000:634.680 - 0.006ms returns 0
T2C40 000:634.685 JLINK_WriteReg(XPSR, 0x01000000)
T2C40 000:634.690 - 0.006ms returns 0
T2C40 000:634.694 JLINK_WriteReg(MSP, 0x20002000)
T2C40 000:634.699 - 0.006ms returns 0
T2C40 000:634.703 JLINK_WriteReg(PSP, 0x20002000)
T2C40 000:634.708 - 0.006ms returns 0
T2C40 000:634.712 JLINK_WriteReg(CFBP, 0x00000000)
T2C40 000:634.717 - 0.006ms returns 0
T2C40 000:634.721 JLINK_SetBPEx(Addr = 0x20000000, Type = 0xFFFFFFF2)
T2C40 000:634.726 - 0.007ms returns 0x00000006
T2C40 000:634.731 JLINK_Go()
T2C40 000:634.739   CPU_ReadMem(4 bytes @ 0xE0001000)
T2C40 000:635.566   CPU_WriteMem(4 bytes @ 0xE0001000)
T2C40 000:640.986 - 6.284ms
T2C40 000:641.040 JLINK_IsHalted()
T2C40 000:646.509   CPU_ReadMem(2 bytes @ 0x20000000)
T2C40 000:647.301 - 6.265ms returns TRUE
T2C40 000:647.309 JLINK_ReadReg(R15 (PC))
T2C40 000:647.315 - 0.008ms returns 0x20000000
T2C40 000:647.320 JLINK_ClrBPEx(BPHandle = 0x00000006)
T2C40 000:647.325 - 0.006ms returns 0x00
T2C40 000:647.330 JLINK_ReadReg(R0)
T2C40 000:647.334 - 0.006ms returns 0x00000001
T2C40 000:647.340 JLINK_HasError()
T2C40 000:647.344 JLINK_WriteReg(R0, 0x00000400)
T2C40 000:647.349 - 0.006ms returns 0
T2C40 000:647.354 JLINK_WriteReg(R1, 0x00000200)
T2C40 000:647.358 - 0.006ms returns 0
T2C40 000:647.363 JLINK_WriteReg(R2, 0x000000FF)
T2C40 000:647.367 - 0.006ms returns 0
T2C40 000:647.372 JLINK_WriteReg(R3, 0x00000000)
T2C40 000:647.376 - 0.006ms returns 0
T2C40 000:647.381 JLINK_WriteReg(R4, 0x00000000)
T2C40 000:647.385 - 0.006ms returns 0
T2C40 000:647.390 JLINK_WriteReg(R5, 0x00000000)
T2C40 000:647.394 - 0.006ms returns 0
T2C40 000:647.399 JLINK_WriteReg(R6, 0x00000000)
T2C40 000:647.403 - 0.006ms returns 0
T2C40 000:647.408 JLINK_WriteReg(R7, 0x00000000)
T2C40 000:647.412 - 0.006ms returns 0
T2C40 000:647.417 JLINK_WriteReg(R8, 0x00000000)
T2C40 000:647.421 - 0.006ms returns 0
T2C40 000:647.426 JLINK_WriteReg(R9, 0x20000214)
T2C40 000:647.430 - 0.006ms returns 0
T2C40 000:647.434 JLINK_WriteReg(R10, 0x00000000)
T2C40 000:647.439 - 0.006ms returns 0
T2C40 000:647.443 JLINK_WriteReg(R11, 0x00000000)
T2C40 000:647.448 - 0.006ms returns 0
T2C40 000:647.452 JLINK_WriteReg(R12, 0x00000000)
T2C40 000:647.457 - 0.006ms returns 0
T2C40 000:647.461 JLINK_WriteReg(R13 (SP), 0x20002000)
T2C40 000:647.466 - 0.006ms returns 0
T2C40 000:647.470 JLINK_WriteReg(R14, 0x20000001)
T2C40 000:647.475 - 0.006ms returns 0
T2C40 000:647.479 JLINK_WriteReg(R15 (PC), 0x2000014A)
T2C40 000:647.484 - 0.006ms returns 0
T2C40 000:647.488 JLINK_WriteReg(XPSR, 0x01000000)
T2C40 000:647.493 - 0.006ms returns 0
T2C40 000:647.497 JLINK_WriteReg(MSP, 0x20002000)
T2C40 000:647.502 - 0.006ms returns 0
T2C40 000:647.506 JLINK_WriteReg(PSP, 0x20002000)
T2C40 000:647.511 - 0.006ms returns 0
T2C40 000:647.515 JLINK_WriteReg(CFBP, 0x00000000)
T2C40 000:647.520 - 0.006ms returns 0
T2C40 000:647.524 JLINK_SetBPEx(Addr = 0x20000000, Type = 0xFFFFFFF2)
T2C40 000:647.529 - 0.007ms returns 0x00000007
T2C40 000:647.534 JLINK_Go()
T2C40 000:647.542   CPU_ReadMem(4 bytes @ 0xE0001000)
T2C40 000:648.254   CPU_WriteMem(4 bytes @ 0xE0001000)
T2C40 000:653.498 - 5.984ms
T2C40 000:653.538 JLINK_IsHalted()
T2C40 000:654.227 - 0.693ms returns FALSE
T2C40 000:654.234 JLINK_HasError()
T2C40 000:655.993 JLINK_IsHalted()
T2C40 000:656.774 - 0.793ms returns FALSE
T2C40 000:656.803 JLINK_HasError()
T2C40 000:657.984 JLINK_IsHalted()
T2C40 000:663.181   CPU_ReadMem(2 bytes @ 0x20000000)
T2C40 000:663.960 - 5.994ms returns TRUE
T2C40 000:664.005 JLINK_ReadReg(R15 (PC))
T2C40 000:664.043 - 0.055ms returns 0x20000000
T2C40 000:664.080 JLINK_ClrBPEx(BPHandle = 0x00000007)
T2C40 000:664.105 - 0.027ms returns 0x00
T2C40 000:664.111 JLINK_ReadReg(R0)
T2C40 000:664.115 - 0.006ms returns 0x00000000
T2C40 000:664.472 JLINK_HasError()
T2C40 000:664.481 JLINK_WriteReg(R0, 0x00000600)
T2C40 000:664.487 - 0.008ms returns 0
T2C40 000:664.492 JLINK_WriteReg(R1, 0x00000200)
T2C40 000:664.497 - 0.006ms returns 0
T2C40 000:664.501 JLINK_WriteReg(R2, 0x000000FF)
T2C40 000:664.506 - 0.006ms returns 0
T2C40 000:664.511 JLINK_WriteReg(R3, 0x00000000)
T2C40 000:664.515 - 0.006ms returns 0
T2C40 000:664.520 JLINK_WriteReg(R4, 0x00000000)
T2C40 000:664.524 - 0.006ms returns 0
T2C40 000:664.529 JLINK_WriteReg(R5, 0x00000000)
T2C40 000:664.533 - 0.006ms returns 0
T2C40 000:664.537 JLINK_WriteReg(R6, 0x00000000)
T2C40 000:664.542 - 0.006ms returns 0
T2C40 000:664.546 JLINK_WriteReg(R7, 0x00000000)
T2C40 000:664.551 - 0.006ms returns 0
T2C40 000:664.555 JLINK_WriteReg(R8, 0x00000000)
T2C40 000:664.559 - 0.006ms returns 0
T2C40 000:664.564 JLINK_WriteReg(R9, 0x20000214)
T2C40 000:664.569 - 0.006ms returns 0
T2C40 000:664.573 JLINK_WriteReg(R10, 0x00000000)
T2C40 000:664.578 - 0.006ms returns 0
T2C40 000:664.582 JLINK_WriteReg(R11, 0x00000000)
T2C40 000:664.587 - 0.006ms returns 0
T2C40 000:664.591 JLINK_WriteReg(R12, 0x00000000)
T2C40 000:664.595 - 0.006ms returns 0
T2C40 000:664.600 JLINK_WriteReg(R13 (SP), 0x20002000)
T2C40 000:664.605 - 0.006ms returns 0
T2C40 000:664.609 JLINK_WriteReg(R14, 0x20000001)
T2C40 000:664.614 - 0.006ms returns 0
T2C40 000:664.618 JLINK_WriteReg(R15 (PC), 0x20000020)
T2C40 000:664.623 - 0.006ms returns 0
T2C40 000:664.627 JLINK_WriteReg(XPSR, 0x01000000)
T2C40 000:664.632 - 0.006ms returns 0
T2C40 000:664.636 JLINK_WriteReg(MSP, 0x20002000)
T2C40 000:664.641 - 0.006ms returns 0
T2C40 000:664.645 JLINK_WriteReg(PSP, 0x20002000)
T2C40 000:664.650 - 0.006ms returns 0
T2C40 000:664.654 JLINK_WriteReg(CFBP, 0x00000000)
T2C40 000:664.659 - 0.006ms returns 0
T2C40 000:664.663 JLINK_SetBPEx(Addr = 0x20000000, Type = 0xFFFFFFF2)
T2C40 000:664.668 - 0.007ms returns 0x00000008
T2C40 000:664.673 JLINK_Go()
T2C40 000:664.681   CPU_ReadMem(4 bytes @ 0xE0001000)
T2C40 000:665.523   CPU_WriteMem(4 bytes @ 0xE0001000)
T2C40 000:670.963 - 6.308ms
T2C40 000:670.999 JLINK_IsHalted()
T2C40 000:676.276   CPU_ReadMem(2 bytes @ 0x20000000)
T2C40 000:677.060 - 6.067ms returns TRUE
T2C40 000:677.071 JLINK_ReadReg(R15 (PC))
T2C40 000:677.078 - 0.008ms returns 0x20000000
T2C40 000:677.083 JLINK_ClrBPEx(BPHandle = 0x00000008)
T2C40 000:677.088 - 0.006ms returns 0x00
T2C40 000:677.092 JLINK_ReadReg(R0)
T2C40 000:677.097 - 0.006ms returns 0x00000001
T2C40 000:677.102 JLINK_HasError()
T2C40 000:677.107 JLINK_WriteReg(R0, 0x00000600)
T2C40 000:677.112 - 0.006ms returns 0
T2C40 000:677.116 JLINK_WriteReg(R1, 0x00000200)
T2C40 000:677.121 - 0.006ms returns 0
T2C40 000:677.125 JLINK_WriteReg(R2, 0x000000FF)
T2C40 000:677.130 - 0.006ms returns 0
T2C40 000:677.135 JLINK_WriteReg(R3, 0x00000000)
T2C40 000:677.139 - 0.006ms returns 0
T2C40 000:677.143 JLINK_WriteReg(R4, 0x00000000)
T2C40 000:677.148 - 0.006ms returns 0
T2C40 000:677.152 JLINK_WriteReg(R5, 0x00000000)
T2C40 000:677.157 - 0.006ms returns 0
T2C40 000:677.161 JLINK_WriteReg(R6, 0x00000000)
T2C40 000:677.166 - 0.006ms returns 0
T2C40 000:677.170 JLINK_WriteReg(R7, 0x00000000)
T2C40 000:677.175 - 0.006ms returns 0
T2C40 000:677.179 JLINK_WriteReg(R8, 0x00000000)
T2C40 000:677.184 - 0.006ms returns 0
T2C40 000:677.188 JLINK_WriteReg(R9, 0x20000214)
T2C40 000:677.193 - 0.006ms returns 0
T2C40 000:677.197 JLINK_WriteReg(R10, 0x00000000)
T2C40 000:677.201 - 0.006ms returns 0
T2C40 000:677.206 JLINK_WriteReg(R11, 0x00000000)
T2C40 000:677.211 - 0.006ms returns 0
T2C40 000:677.215 JLINK_WriteReg(R12, 0x00000000)
T2C40 000:677.220 - 0.006ms returns 0
T2C40 000:677.224 JLINK_WriteReg(R13 (SP), 0x20002000)
T2C40 000:677.229 - 0.006ms returns 0
T2C40 000:677.234 JLINK_WriteReg(R14, 0x20000001)
T2C40 000:677.281 - 0.051ms returns 0
T2C40 000:677.289 JLINK_WriteReg(R15 (PC), 0x2000014A)
T2C40 000:677.293 - 0.006ms returns 0
T2C40 000:677.298 JLINK_WriteReg(XPSR, 0x01000000)
T2C40 000:677.302 - 0.006ms returns 0
T2C40 000:677.307 JLINK_WriteReg(MSP, 0x20002000)
T2C40 000:677.311 - 0.006ms returns 0
T2C40 000:677.316 JLINK_WriteReg(PSP, 0x20002000)
T2C40 000:677.320 - 0.006ms returns 0
T2C40 000:677.325 JLINK_WriteReg(CFBP, 0x00000000)
T2C40 000:677.329 - 0.006ms returns 0
T2C40 000:677.334 JLINK_SetBPEx(Addr = 0x20000000, Type = 0xFFFFFFF2)
T2C40 000:677.339 - 0.007ms returns 0x00000009
T2C40 000:677.344 JLINK_Go()
T2C40 000:677.352   CPU_ReadMem(4 bytes @ 0xE0001000)
T2C40 000:678.074   CPU_WriteMem(4 bytes @ 0xE0001000)
T2C40 000:683.437 - 6.110ms
T2C40 000:683.474 JLINK_IsHalted()
T2C40 000:684.220 - 0.749ms returns FALSE
T2C40 000:684.227 JLINK_HasError()
T2C40 000:685.925 JLINK_IsHalted()
T2C40 000:686.777 - 0.869ms returns FALSE
T2C40 000:686.813 JLINK_HasError()
T2C40 000:688.939 JLINK_IsHalted()
T2C40 000:694.193   CPU_ReadMem(2 bytes @ 0x20000000)
T2C40 000:694.990 - 6.066ms returns TRUE
T2C40 000:695.031 JLINK_ReadReg(R15 (PC))
T2C40 000:695.061 - 0.032ms returns 0x20000000
T2C40 000:695.067 JLINK_ClrBPEx(BPHandle = 0x00000009)
T2C40 000:695.072 - 0.006ms returns 0x00
T2C40 000:695.078 JLINK_ReadReg(R0)
T2C40 000:695.082 - 0.006ms returns 0x00000000
T2C40 000:695.438 JLINK_HasError()
T2C40 000:695.448 JLINK_WriteReg(R0, 0x00000800)
T2C40 000:695.454 - 0.008ms returns 0
T2C40 000:695.460 JLINK_WriteReg(R1, 0x00000200)
T2C40 000:695.464 - 0.006ms returns 0
T2C40 000:695.469 JLINK_WriteReg(R2, 0x000000FF)
T2C40 000:695.473 - 0.006ms returns 0
T2C40 000:695.478 JLINK_WriteReg(R3, 0x00000000)
T2C40 000:695.482 - 0.006ms returns 0
T2C40 000:695.487 JLINK_WriteReg(R4, 0x00000000)
T2C40 000:695.491 - 0.006ms returns 0
T2C40 000:695.496 JLINK_WriteReg(R5, 0x00000000)
T2C40 000:695.500 - 0.006ms returns 0
T2C40 000:695.505 JLINK_WriteReg(R6, 0x00000000)
T2C40 000:695.509 - 0.006ms returns 0
T2C40 000:695.514 JLINK_WriteReg(R7, 0x00000000)
T2C40 000:695.518 - 0.006ms returns 0
T2C40 000:695.523 JLINK_WriteReg(R8, 0x00000000)
T2C40 000:695.527 - 0.006ms returns 0
T2C40 000:695.532 JLINK_WriteReg(R9, 0x20000214)
T2C40 000:695.536 - 0.006ms returns 0
T2C40 000:695.541 JLINK_WriteReg(R10, 0x00000000)
T2C40 000:695.545 - 0.006ms returns 0
T2C40 000:695.550 JLINK_WriteReg(R11, 0x00000000)
T2C40 000:695.554 - 0.006ms returns 0
T2C40 000:695.559 JLINK_WriteReg(R12, 0x00000000)
T2C40 000:695.563 - 0.006ms returns 0
T2C40 000:695.568 JLINK_WriteReg(R13 (SP), 0x20002000)
T2C40 000:695.573 - 0.006ms returns 0
T2C40 000:695.577 JLINK_WriteReg(R14, 0x20000001)
T2C40 000:695.582 - 0.006ms returns 0
T2C40 000:695.586 JLINK_WriteReg(R15 (PC), 0x20000020)
T2C40 000:695.591 - 0.006ms returns 0
T2C40 000:695.596 JLINK_WriteReg(XPSR, 0x01000000)
T2C40 000:695.600 - 0.006ms returns 0
T2C40 000:695.605 JLINK_WriteReg(MSP, 0x20002000)
T2C40 000:695.609 - 0.006ms returns 0
T2C40 000:695.614 JLINK_WriteReg(PSP, 0x20002000)
T2C40 000:695.618 - 0.006ms returns 0
T2C40 000:695.623 JLINK_WriteReg(CFBP, 0x00000000)
T2C40 000:695.627 - 0.006ms returns 0
T2C40 000:695.632 JLINK_SetBPEx(Addr = 0x20000000, Type = 0xFFFFFFF2)
T2C40 000:695.637 - 0.007ms returns 0x0000000A
T2C40 000:695.642 JLINK_Go()
T2C40 000:695.650   CPU_ReadMem(4 bytes @ 0xE0001000)
T2C40 000:696.438   CPU_WriteMem(4 bytes @ 0xE0001000)
T2C40 000:701.948 - 6.324ms
T2C40 000:701.984 JLINK_IsHalted()
T2C40 000:707.227   CPU_ReadMem(2 bytes @ 0x20000000)
T2C40 000:707.952 - 5.983ms returns TRUE
T2C40 000:707.994 JLINK_ReadReg(R15 (PC))
T2C40 000:707.999 - 0.007ms returns 0x20000000
T2C40 000:708.004 JLINK_ClrBPEx(BPHandle = 0x0000000A)
T2C40 000:708.009 - 0.006ms returns 0x00
T2C40 000:708.014 JLINK_ReadReg(R0)
T2C40 000:708.018 - 0.006ms returns 0x00000001
T2C40 000:708.023 JLINK_HasError()
T2C40 000:708.028 JLINK_WriteReg(R0, 0x00000800)
T2C40 000:708.032 - 0.006ms returns 0
T2C40 000:708.040 JLINK_WriteReg(R1, 0x00000200)
T2C40 000:708.046 - 0.008ms returns 0
T2C40 000:708.051 JLINK_WriteReg(R2, 0x000000FF)
T2C40 000:708.056 - 0.006ms returns 0
T2C40 000:708.060 JLINK_WriteReg(R3, 0x00000000)
T2C40 000:708.065 - 0.006ms returns 0
T2C40 000:708.069 JLINK_WriteReg(R4, 0x00000000)
T2C40 000:708.074 - 0.006ms returns 0
T2C40 000:708.078 JLINK_WriteReg(R5, 0x00000000)
T2C40 000:708.083 - 0.006ms returns 0
T2C40 000:708.087 JLINK_WriteReg(R6, 0x00000000)
T2C40 000:708.092 - 0.006ms returns 0
T2C40 000:708.096 JLINK_WriteReg(R7, 0x00000000)
T2C40 000:708.101 - 0.006ms returns 0
T2C40 000:708.105 JLINK_WriteReg(R8, 0x00000000)
T2C40 000:708.110 - 0.006ms returns 0
T2C40 000:708.114 JLINK_WriteReg(R9, 0x20000214)
T2C40 000:708.119 - 0.006ms returns 0
T2C40 000:708.123 JLINK_WriteReg(R10, 0x00000000)
T2C40 000:708.128 - 0.006ms returns 0
T2C40 000:708.132 JLINK_WriteReg(R11, 0x00000000)
T2C40 000:708.137 - 0.006ms returns 0
T2C40 000:708.141 JLINK_WriteReg(R12, 0x00000000)
T2C40 000:708.146 - 0.006ms returns 0
T2C40 000:708.150 JLINK_WriteReg(R13 (SP), 0x20002000)
T2C40 000:708.155 - 0.006ms returns 0
T2C40 000:708.159 JLINK_WriteReg(R14, 0x20000001)
T2C40 000:708.164 - 0.006ms returns 0
T2C40 000:708.169 JLINK_WriteReg(R15 (PC), 0x2000014A)
T2C40 000:708.173 - 0.006ms returns 0
T2C40 000:708.178 JLINK_WriteReg(XPSR, 0x01000000)
T2C40 000:708.182 - 0.006ms returns 0
T2C40 000:708.187 JLINK_WriteReg(MSP, 0x20002000)
T2C40 000:708.191 - 0.006ms returns 0
T2C40 000:708.196 JLINK_WriteReg(PSP, 0x20002000)
T2C40 000:708.200 - 0.006ms returns 0
T2C40 000:708.205 JLINK_WriteReg(CFBP, 0x00000000)
T2C40 000:708.209 - 0.006ms returns 0
T2C40 000:708.214 JLINK_SetBPEx(Addr = 0x20000000, Type = 0xFFFFFFF2)
T2C40 000:708.218 - 0.006ms returns 0x0000000B
T2C40 000:708.223 JLINK_Go()
T2C40 000:708.231   CPU_ReadMem(4 bytes @ 0xE0001000)
T2C40 000:709.002   CPU_WriteMem(4 bytes @ 0xE0001000)
T2C40 000:714.372 - 6.172ms
T2C40 000:714.414 JLINK_IsHalted()
T2C40 000:715.163 - 0.763ms returns FALSE
T2C40 000:715.195 JLINK_HasError()
T2C40 000:718.844 JLINK_IsHalted()
T2C40 000:724.263   CPU_ReadMem(2 bytes @ 0x20000000)
T2C40 000:725.051 - 6.210ms returns TRUE
T2C40 000:725.060 JLINK_ReadReg(R15 (PC))
T2C40 000:725.066 - 0.007ms returns 0x20000000
T2C40 000:725.072 JLINK_ClrBPEx(BPHandle = 0x0000000B)
T2C40 000:725.076 - 0.006ms returns 0x00
T2C40 000:725.082 JLINK_ReadReg(R0)
T2C40 000:725.086 - 0.006ms returns 0x00000000
T2C40 000:725.381 JLINK_HasError()
T2C40 000:725.390 JLINK_WriteReg(R0, 0x00000A00)
T2C40 000:725.396 - 0.008ms returns 0
T2C40 000:725.401 JLINK_WriteReg(R1, 0x00000200)
T2C40 000:725.406 - 0.006ms returns 0
T2C40 000:725.410 JLINK_WriteReg(R2, 0x000000FF)
T2C40 000:725.415 - 0.006ms returns 0
T2C40 000:725.419 JLINK_WriteReg(R3, 0x00000000)
T2C40 000:725.424 - 0.006ms returns 0
T2C40 000:725.428 JLINK_WriteReg(R4, 0x00000000)
T2C40 000:725.433 - 0.006ms returns 0
T2C40 000:725.437 JLINK_WriteReg(R5, 0x00000000)
T2C40 000:725.441 - 0.006ms returns 0
T2C40 000:725.446 JLINK_WriteReg(R6, 0x00000000)
T2C40 000:725.450 - 0.006ms returns 0
T2C40 000:725.455 JLINK_WriteReg(R7, 0x00000000)
T2C40 000:725.459 - 0.006ms returns 0
T2C40 000:725.464 JLINK_WriteReg(R8, 0x00000000)
T2C40 000:725.468 - 0.006ms returns 0
T2C40 000:725.473 JLINK_WriteReg(R9, 0x20000214)
T2C40 000:725.477 - 0.006ms returns 0
T2C40 000:725.482 JLINK_WriteReg(R10, 0x00000000)
T2C40 000:725.486 - 0.006ms returns 0
T2C40 000:725.491 JLINK_WriteReg(R11, 0x00000000)
T2C40 000:725.495 - 0.006ms returns 0
T2C40 000:725.500 JLINK_WriteReg(R12, 0x00000000)
T2C40 000:725.504 - 0.006ms returns 0
T2C40 000:725.509 JLINK_WriteReg(R13 (SP), 0x20002000)
T2C40 000:725.513 - 0.006ms returns 0
T2C40 000:725.518 JLINK_WriteReg(R14, 0x20000001)
T2C40 000:725.522 - 0.006ms returns 0
T2C40 000:725.527 JLINK_WriteReg(R15 (PC), 0x20000020)
T2C40 000:725.531 - 0.006ms returns 0
T2C40 000:725.536 JLINK_WriteReg(XPSR, 0x01000000)
T2C40 000:725.541 - 0.006ms returns 0
T2C40 000:725.547 JLINK_WriteReg(MSP, 0x20002000)
T2C40 000:725.553 - 0.007ms returns 0
T2C40 000:725.558 JLINK_WriteReg(PSP, 0x20002000)
T2C40 000:725.562 - 0.006ms returns 0
T2C40 000:725.567 JLINK_WriteReg(CFBP, 0x00000000)
T2C40 000:725.571 - 0.006ms returns 0
T2C40 000:725.576 JLINK_SetBPEx(Addr = 0x20000000, Type = 0xFFFFFFF2)
T2C40 000:725.581 - 0.007ms returns 0x0000000C
T2C40 000:725.586 JLINK_Go()
T2C40 000:725.594   CPU_ReadMem(4 bytes @ 0xE0001000)
T2C40 000:726.445   CPU_WriteMem(4 bytes @ 0xE0001000)
T2C40 000:731.793 - 6.235ms
T2C40 000:731.841 JLINK_IsHalted()
T2C40 000:737.273   CPU_ReadMem(2 bytes @ 0x20000000)
T2C40 000:738.002 - 6.164ms returns TRUE
T2C40 000:738.009 JLINK_ReadReg(R15 (PC))
T2C40 000:738.015 - 0.007ms returns 0x20000000
T2C40 000:738.019 JLINK_ClrBPEx(BPHandle = 0x0000000C)
T2C40 000:738.024 - 0.006ms returns 0x00
T2C40 000:738.029 JLINK_ReadReg(R0)
T2C40 000:738.033 - 0.006ms returns 0x00000001
T2C40 000:738.038 JLINK_HasError()
T2C40 000:738.043 JLINK_WriteReg(R0, 0x00000A00)
T2C40 000:738.048 - 0.006ms returns 0
T2C40 000:738.053 JLINK_WriteReg(R1, 0x00000200)
T2C40 000:738.057 - 0.006ms returns 0
T2C40 000:738.062 JLINK_WriteReg(R2, 0x000000FF)
T2C40 000:738.066 - 0.006ms returns 0
T2C40 000:738.071 JLINK_WriteReg(R3, 0x00000000)
T2C40 000:738.075 - 0.006ms returns 0
T2C40 000:738.080 JLINK_WriteReg(R4, 0x00000000)
T2C40 000:738.084 - 0.006ms returns 0
T2C40 000:738.089 JLINK_WriteReg(R5, 0x00000000)
T2C40 000:738.093 - 0.006ms returns 0
T2C40 000:738.097 JLINK_WriteReg(R6, 0x00000000)
T2C40 000:738.102 - 0.006ms returns 0
T2C40 000:738.106 JLINK_WriteReg(R7, 0x00000000)
T2C40 000:738.111 - 0.006ms returns 0
T2C40 000:738.115 JLINK_WriteReg(R8, 0x00000000)
T2C40 000:738.119 - 0.006ms returns 0
T2C40 000:738.124 JLINK_WriteReg(R9, 0x20000214)
T2C40 000:738.129 - 0.006ms returns 0
T2C40 000:738.133 JLINK_WriteReg(R10, 0x00000000)
T2C40 000:738.138 - 0.006ms returns 0
T2C40 000:738.142 JLINK_WriteReg(R11, 0x00000000)
T2C40 000:738.147 - 0.006ms returns 0
T2C40 000:738.151 JLINK_WriteReg(R12, 0x00000000)
T2C40 000:738.155 - 0.006ms returns 0
T2C40 000:738.160 JLINK_WriteReg(R13 (SP), 0x20002000)
T2C40 000:738.165 - 0.006ms returns 0
T2C40 000:738.169 JLINK_WriteReg(R14, 0x20000001)
T2C40 000:738.174 - 0.006ms returns 0
T2C40 000:738.178 JLINK_WriteReg(R15 (PC), 0x2000014A)
T2C40 000:738.183 - 0.006ms returns 0
T2C40 000:738.187 JLINK_WriteReg(XPSR, 0x01000000)
T2C40 000:738.191 - 0.006ms returns 0
T2C40 000:738.196 JLINK_WriteReg(MSP, 0x20002000)
T2C40 000:738.200 - 0.006ms returns 0
T2C40 000:738.205 JLINK_WriteReg(PSP, 0x20002000)
T2C40 000:738.209 - 0.006ms returns 0
T2C40 000:738.214 JLINK_WriteReg(CFBP, 0x00000000)
T2C40 000:738.218 - 0.006ms returns 0
T2C40 000:738.223 JLINK_SetBPEx(Addr = 0x20000000, Type = 0xFFFFFFF2)
T2C40 000:738.228 - 0.006ms returns 0x0000000D
T2C40 000:738.233 JLINK_Go()
T2C40 000:738.240   CPU_ReadMem(4 bytes @ 0xE0001000)
T2C40 000:738.965   CPU_WriteMem(4 bytes @ 0xE0001000)
T2C40 000:744.259 - 6.032ms
T2C40 000:744.269 JLINK_IsHalted()
T2C40 000:744.961 - 0.695ms returns FALSE
T2C40 000:744.969 JLINK_HasError()
T2C40 000:746.754 JLINK_IsHalted()
T2C40 000:747.512 - 0.771ms returns FALSE
T2C40 000:747.542 JLINK_HasError()
T2C40 000:748.745 JLINK_IsHalted()
T2C40 000:754.094   CPU_ReadMem(2 bytes @ 0x20000000)
T2C40 000:754.925 - 6.183ms returns TRUE
T2C40 000:754.933 JLINK_ReadReg(R15 (PC))
T2C40 000:754.939 - 0.007ms returns 0x20000000
T2C40 000:754.945 JLINK_ClrBPEx(BPHandle = 0x0000000D)
T2C40 000:754.949 - 0.006ms returns 0x00
T2C40 000:754.955 JLINK_ReadReg(R0)
T2C40 000:754.959 - 0.006ms returns 0x00000000
T2C40 000:755.265 JLINK_HasError()
T2C40 000:755.273 JLINK_WriteReg(R0, 0x00000C00)
T2C40 000:755.279 - 0.008ms returns 0
T2C40 000:755.284 JLINK_WriteReg(R1, 0x00000200)
T2C40 000:755.288 - 0.006ms returns 0
T2C40 000:755.293 JLINK_WriteReg(R2, 0x000000FF)
T2C40 000:755.298 - 0.006ms returns 0
T2C40 000:755.302 JLINK_WriteReg(R3, 0x00000000)
T2C40 000:755.307 - 0.009ms returns 0
T2C40 000:755.316 JLINK_WriteReg(R4, 0x00000000)
T2C40 000:755.320 - 0.006ms returns 0
T2C40 000:755.325 JLINK_WriteReg(R5, 0x00000000)
T2C40 000:755.329 - 0.006ms returns 0
T2C40 000:755.334 JLINK_WriteReg(R6, 0x00000000)
T2C40 000:755.338 - 0.006ms returns 0
T2C40 000:755.343 JLINK_WriteReg(R7, 0x00000000)
T2C40 000:755.347 - 0.006ms returns 0
T2C40 000:755.352 JLINK_WriteReg(R8, 0x00000000)
T2C40 000:755.356 - 0.006ms returns 0
T2C40 000:755.361 JLINK_WriteReg(R9, 0x20000214)
T2C40 000:755.365 - 0.006ms returns 0
T2C40 000:755.370 JLINK_WriteReg(R10, 0x00000000)
T2C40 000:755.374 - 0.006ms returns 0
T2C40 000:755.378 JLINK_WriteReg(R11, 0x00000000)
T2C40 000:755.383 - 0.006ms returns 0
T2C40 000:755.387 JLINK_WriteReg(R12, 0x00000000)
T2C40 000:755.392 - 0.006ms returns 0
T2C40 000:755.396 JLINK_WriteReg(R13 (SP), 0x20002000)
T2C40 000:755.401 - 0.006ms returns 0
T2C40 000:755.406 JLINK_WriteReg(R14, 0x20000001)
T2C40 000:755.410 - 0.006ms returns 0
T2C40 000:755.415 JLINK_WriteReg(R15 (PC), 0x20000020)
T2C40 000:755.419 - 0.006ms returns 0
T2C40 000:755.424 JLINK_WriteReg(XPSR, 0x01000000)
T2C40 000:755.428 - 0.006ms returns 0
T2C40 000:755.433 JLINK_WriteReg(MSP, 0x20002000)
T2C40 000:755.437 - 0.006ms returns 0
T2C40 000:755.442 JLINK_WriteReg(PSP, 0x20002000)
T2C40 000:755.446 - 0.006ms returns 0
T2C40 000:755.451 JLINK_WriteReg(CFBP, 0x00000000)
T2C40 000:755.455 - 0.006ms returns 0
T2C40 000:755.460 JLINK_SetBPEx(Addr = 0x20000000, Type = 0xFFFFFFF2)
T2C40 000:755.465 - 0.007ms returns 0x0000000E
T2C40 000:755.469 JLINK_Go()
T2C40 000:755.478   CPU_ReadMem(4 bytes @ 0xE0001000)
T2C40 000:756.272   CPU_WriteMem(4 bytes @ 0xE0001000)
T2C40 000:761.683 - 6.243ms
T2C40 000:761.733 JLINK_IsHalted()
T2C40 000:767.188   CPU_ReadMem(2 bytes @ 0x20000000)
T2C40 000:767.929 - 6.199ms returns TRUE
T2C40 000:767.936 JLINK_ReadReg(R15 (PC))
T2C40 000:767.941 - 0.007ms returns 0x20000000
T2C40 000:767.946 JLINK_ClrBPEx(BPHandle = 0x0000000E)
T2C40 000:767.951 - 0.006ms returns 0x00
T2C40 000:767.956 JLINK_ReadReg(R0)
T2C40 000:767.960 - 0.006ms returns 0x00000001
T2C40 000:767.965 JLINK_HasError()
T2C40 000:767.970 JLINK_WriteReg(R0, 0x00000C00)
T2C40 000:767.974 - 0.006ms returns 0
T2C40 000:767.979 JLINK_WriteReg(R1, 0x00000200)
T2C40 000:767.983 - 0.006ms returns 0
T2C40 000:767.988 JLINK_WriteReg(R2, 0x000000FF)
T2C40 000:767.992 - 0.006ms returns 0
T2C40 000:767.997 JLINK_WriteReg(R3, 0x00000000)
T2C40 000:768.001 - 0.006ms returns 0
T2C40 000:768.006 JLINK_WriteReg(R4, 0x00000000)
T2C40 000:768.010 - 0.006ms returns 0
T2C40 000:768.015 JLINK_WriteReg(R5, 0x00000000)
T2C40 000:768.019 - 0.006ms returns 0
T2C40 000:768.024 JLINK_WriteReg(R6, 0x00000000)
T2C40 000:768.028 - 0.006ms returns 0
T2C40 000:768.033 JLINK_WriteReg(R7, 0x00000000)
T2C40 000:768.037 - 0.006ms returns 0
T2C40 000:768.042 JLINK_WriteReg(R8, 0x00000000)
T2C40 000:768.046 - 0.006ms returns 0
T2C40 000:768.051 JLINK_WriteReg(R9, 0x20000214)
T2C40 000:768.055 - 0.006ms returns 0
T2C40 000:768.060 JLINK_WriteReg(R10, 0x00000000)
T2C40 000:768.064 - 0.006ms returns 0
T2C40 000:768.069 JLINK_WriteReg(R11, 0x00000000)
T2C40 000:768.073 - 0.006ms returns 0
T2C40 000:768.078 JLINK_WriteReg(R12, 0x00000000)
T2C40 000:768.082 - 0.006ms returns 0
T2C40 000:768.087 JLINK_WriteReg(R13 (SP), 0x20002000)
T2C40 000:768.091 - 0.006ms returns 0
T2C40 000:768.096 JLINK_WriteReg(R14, 0x20000001)
T2C40 000:768.100 - 0.006ms returns 0
T2C40 000:768.105 JLINK_WriteReg(R15 (PC), 0x2000014A)
T2C40 000:768.109 - 0.006ms returns 0
T2C40 000:768.114 JLINK_WriteReg(XPSR, 0x01000000)
T2C40 000:768.118 - 0.006ms returns 0
T2C40 000:768.123 JLINK_WriteReg(MSP, 0x20002000)
T2C40 000:768.127 - 0.006ms returns 0
T2C40 000:768.132 JLINK_WriteReg(PSP, 0x20002000)
T2C40 000:768.136 - 0.006ms returns 0
T2C40 000:768.141 JLINK_WriteReg(CFBP, 0x00000000)
T2C40 000:768.145 - 0.006ms returns 0
T2C40 000:768.150 JLINK_SetBPEx(Addr = 0x20000000, Type = 0xFFFFFFF2)
T2C40 000:768.155 - 0.008ms returns 0x0000000F
T2C40 000:768.163 JLINK_Go()
T2C40 000:768.170   CPU_ReadMem(4 bytes @ 0xE0001000)
T2C40 000:768.932   CPU_WriteMem(4 bytes @ 0xE0001000)
T2C40 000:774.252 - 6.107ms
T2C40 000:774.288 JLINK_IsHalted()
T2C40 000:775.060 - 0.786ms returns FALSE
T2C40 000:775.091 JLINK_HasError()
T2C40 000:776.676 JLINK_IsHalted()
T2C40 000:777.443 - 0.772ms returns FALSE
T2C40 000:777.452 JLINK_HasError()
T2C40 000:778.667 JLINK_IsHalted()
T2C40 000:784.068   CPU_ReadMem(2 bytes @ 0x20000000)
T2C40 000:784.839 - 6.176ms returns TRUE
T2C40 000:784.847 JLINK_ReadReg(R15 (PC))
T2C40 000:784.853 - 0.007ms returns 0x20000000
T2C40 000:784.859 JLINK_ClrBPEx(BPHandle = 0x0000000F)
T2C40 000:784.863 - 0.006ms returns 0x00
T2C40 000:784.869 JLINK_ReadReg(R0)
T2C40 000:784.874 - 0.006ms returns 0x00000000
T2C40 000:785.166 JLINK_HasError()
T2C40 000:785.174 JLINK_WriteReg(R0, 0x00000E00)
T2C40 000:785.180 - 0.007ms returns 0
T2C40 000:785.185 JLINK_WriteReg(R1, 0x00000200)
T2C40 000:785.189 - 0.006ms returns 0
T2C40 000:785.194 JLINK_WriteReg(R2, 0x000000FF)
T2C40 000:785.198 - 0.006ms returns 0
T2C40 000:785.203 JLINK_WriteReg(R3, 0x00000000)
T2C40 000:785.207 - 0.006ms returns 0
T2C40 000:785.212 JLINK_WriteReg(R4, 0x00000000)
T2C40 000:785.216 - 0.006ms returns 0
T2C40 000:785.221 JLINK_WriteReg(R5, 0x00000000)
T2C40 000:785.225 - 0.006ms returns 0
T2C40 000:785.230 JLINK_WriteReg(R6, 0x00000000)
T2C40 000:785.234 - 0.006ms returns 0
T2C40 000:785.239 JLINK_WriteReg(R7, 0x00000000)
T2C40 000:785.243 - 0.006ms returns 0
T2C40 000:785.248 JLINK_WriteReg(R8, 0x00000000)
T2C40 000:785.252 - 0.006ms returns 0
T2C40 000:785.257 JLINK_WriteReg(R9, 0x20000214)
T2C40 000:785.261 - 0.006ms returns 0
T2C40 000:785.266 JLINK_WriteReg(R10, 0x00000000)
T2C40 000:785.270 - 0.006ms returns 0
T2C40 000:785.275 JLINK_WriteReg(R11, 0x00000000)
T2C40 000:785.279 - 0.006ms returns 0
